
T3430 000:023 SEGGER J-Link V6.00e Log File (0000ms, 0015ms total)
T3430 000:023 DLL Compiled: Aug  4 2016 09:37:38 (0000ms, 0015ms total)
T3430 000:023 Logging started @ 2016-12-14 22:56 (0000ms, 0015ms total)
T3430 000:023 JLINK_SetWarnOutHandler(...) (0000ms, 0015ms total)
T3430 000:023 JLINK_OpenEx(...)
Firmware: J-Link V9 compiled Aug  3 2016 18:50:44
Hardware: V9.40
S/N: 59400008
Feature(s): GDB, RDI, FlashBP, FlashDL, JFlash  returns O.K. (0013ms, 0028ms total)
T3430 000:036 JLINK_SetErrorOutHandler(...) (0000ms, 0028ms total)
T3430 000:036 JLINK_ExecCommand("ProjectFile = "G:\Geek\Projects\midi_controller\code\midi_controller\MDK-ARM\JLinkSettings.ini"", ...).   returns 0x00 (0092ms, 0120ms total)
T3430 000:128 JLINK_ExecCommand("Device = STM32F103C8", ...). Device "STM32F103C8" selected.  returns 0x00 (0001ms, 0121ms total)
T3430 000:129 JLINK_ExecCommand("DisableConnectionTimeout", ...).   returns 0x01 (0000ms, 0121ms total)
T3430 000:129 JLINK_GetHardwareVersion()  returns 0x16F30 (0000ms, 0121ms total)
T3430 000:129 JLINK_GetDLLVersion()  returns 60005 (0000ms, 0121ms total)
T3430 000:129 JLINK_GetFirmwareString(...) (0000ms, 0121ms total)
T3430 000:129 JLINK_GetDLLVersion()  returns 60005 (0000ms, 0121ms total)
T3430 000:129 JLINK_GetCompileDateTime() (0000ms, 0121ms total)
T3430 000:129 JLINK_GetFirmwareString(...) (0000ms, 0121ms total)
T3430 000:129 JLINK_GetHardwareVersion()  returns 0x16F30 (0000ms, 0121ms total)
T3430 000:129 JLINK_TIF_Select(JLINKARM_TIF_SWD)  returns 0x00 (0000ms, 0121ms total)
T3430 000:129 JLINK_SetSpeed(5000) (0001ms, 0122ms total)
T3430 000:130 JLINK_GetId() >0x108 TIF>Found SWD-DP with ID 0x1BA01477 >0x0D TIF> >0x28 TIF> >0x0D TIF> >0x28 TIF> >0x0D TIF> >0x28 TIF> >0x0D TIF> >0x28 TIF> >0x0D TIF> >0x21 TIF> >0x0D TIF> >0x28 TIF> >0x0D TIF> >0x28 TIF> >0x0D TIF> >0x28 TIF> >0x0D TIF> >0x21 TIF> >0x0D TIF> >0x21 TIF> >0x0D TIF> >0x28 TIF> >0x0D TIF> >0x21 TIF> >0x0D TIF> >0x21 TIF> >0x0D TIF> >0x28 TIF> >0x0D TIF> >0x21 TIF> >0x0D TIF> >0x21 TIF> >0x0D TIF> >0x28 TIF> >0x0D TIF> >0x21 TIF> >0x0D TIF> >0x21 TIF> >0x0D TIF>
 >0x28 TIF> >0x0D TIF> >0x21 TIF> >0x0D TIF> >0x21 TIF> >0x0D TIF> >0x28 TIF> >0x0D TIF> >0x21 TIF> >0x0D TIF> >0x21 TIF> >0x0D TIF> >0x28 TIF> >0x0D TIF> >0x21 TIF> >0x0D TIF> >0x21 TIF> >0x108 TIF>Found SWD-DP with ID 0x1BA01477 >0x0D TIF> >0x28 TIF> >0x0D TIF> >0x28 TIF> >0x0D TIF> >0x28 TIF> >0x0D TIF> >0x28 TIF> >0x0D TIF> >0x21 TIF> >0x0D TIF> >0x28 TIF> >0x0D TIF> >0x28 TIF> >0x0D TIF> >0x21 TIF> >0x0D TIF> >0x21 TIF> >0x0D TIF> >0x21 TIF>AP-IDR: 0x14770011, Type: AHB-AP >0x0D TIF> >0x28 TIF>
 >0x0D TIF> >0x28 TIF> >0x0D TIF> >0x28 TIF> >0x0D TIF> >0x21 TIF> >0x0D TIF> >0x21 TIF> >0x0D TIF> >0x28 TIF> >0x0D TIF> >0x21 TIF> >0x0D TIF> >0x21 TIF>Found Cortex-M3 r1p1, Little endian. -- CPU_ReadMem(4 bytes @ 0xE000EDF0) -- CPU_ReadMem(4 bytes @ 0xE0002000)FPUnit: 6 code (BP) slots and 2 literal slots -- CPU_ReadMem(4 bytes @ 0xE000EDFC) -- CPU_ReadMem(4 bytes @ 0xE0001000) -- CPU_WriteMem(4 bytes @ 0xE0001000) -- CPU_ReadMem(4 bytes @ 0xE000ED88) -- CPU_WriteMem(4 bytes @ 0xE000ED88)
 -- CPU_ReadMem(4 bytes @ 0xE000ED88) -- CPU_WriteMem(4 bytes @ 0xE000ED88)CoreSight components:ROMTbl 0 @ E00FF000 -- CPU_ReadMem(16 bytes @ 0xE00FF000) -- CPU_ReadMem(16 bytes @ 0xE000EFF0) -- CPU_ReadMem(16 bytes @ 0xE000EFE0)ROMTbl 0 [0]: FFF0F000, CID: B105E00D, PID: 001BB000 SCS -- CPU_ReadMem(16 bytes @ 0xE0001FF0) -- CPU_ReadMem(16 bytes @ 0xE0001FE0)ROMTbl 0 [1]: FFF02000, CID: B105E00D, PID: 001BB002 DWT -- CPU_ReadMem(16 bytes @ 0xE0002FF0) -- CPU_ReadMem(16 bytes @ 0xE0002FE0)
ROMTbl 0 [2]: FFF03000, CID: B105E00D, PID: 000BB003 FPB -- CPU_ReadMem(16 bytes @ 0xE0000FF0) -- CPU_ReadMem(16 bytes @ 0xE0000FE0)ROMTbl 0 [3]: FFF01000, CID: B105E00D, PID: 001BB001 ITM -- CPU_ReadMem(16 bytes @ 0xE00FF010) -- CPU_ReadMem(16 bytes @ 0xE0040FF0) -- CPU_ReadMem(16 bytes @ 0xE0040FE0)ROMTbl 0 [4]: FFF41000, CID: B105900D, PID: 001BB923 TPIU-Lite >0x0D TIF> >0x21 TIF>  returns 0x1BA01477 (0018ms, 0140ms total)
T3430 000:148 JLINK_GetDLLVersion()  returns 60005 (0000ms, 0140ms total)
T3430 000:148 JLINK_CORE_GetFound()  returns 0x30000FF (0000ms, 0140ms total)
T3430 000:148 JLINK_GetDebugInfo(0x100) -- Value=0xE00FF000  returns 0x00 (0000ms, 0140ms total)
T3430 000:148 JLINK_GetDebugInfo(0x100) -- Value=0xE00FF000  returns 0x00 (0000ms, 0140ms total)
T3430 000:148 JLINK_GetDebugInfo(0x101) -- Value=0x00000000  returns 0x00 (0000ms, 0140ms total)
T3430 000:148 JLINK_ReadMem (0xE0041FF0, 0x0010 Bytes, ...) -- CPU is running -- CPU_ReadMem(16 bytes @ 0xE0041FF0) - Data: 00 00 00 00 00 00 00 00 00 00 00 00 00 00 00 00  returns 0x00 (0001ms, 0141ms total)
T3430 000:149 JLINK_GetDebugInfo(0x102) -- Value=0x00000000  returns 0x00 (0000ms, 0141ms total)
T3430 000:149 JLINK_GetDebugInfo(0x103) -- Value=0xE0040000  returns 0x00 (0000ms, 0141ms total)
T3430 000:149 JLINK_GetDebugInfo(0x104) -- Value=0xE0000000  returns 0x00 (0000ms, 0141ms total)
T3430 000:149 JLINK_GetDebugInfo(0x105) -- Value=0xE0001000  returns 0x00 (0000ms, 0141ms total)
T3430 000:149 JLINK_GetDebugInfo(0x106) -- Value=0xE0002000  returns 0x00 (0000ms, 0141ms total)
T3430 000:149 JLINK_GetDebugInfo(0x107) -- Value=0xE000E000  returns 0x00 (0000ms, 0141ms total)
T3430 000:149 JLINK_GetDebugInfo(0x10C) -- Value=0xE000EDF0  returns 0x00 (0000ms, 0141ms total)
T3430 000:149 JLINK_ReadMemU32(0xE000ED00, 0x0001 Items, ...) -- CPU is running -- CPU_ReadMem(4 bytes @ 0xE000ED00) - Data: 31 C2 1F 41  returns 0x01 (0000ms, 0141ms total)
T3430 000:149 JLINK_SetResetType(JLINKARM_RESET_TYPE_NORMAL)  returns JLINKARM_RESET_TYPE_NORMAL (0000ms, 0141ms total)
T3430 000:149 JLINK_Reset() -- CPU is running -- CPU_WriteMem(4 bytes @ 0xE000EDF0) -- CPU is running -- CPU_WriteMem(4 bytes @ 0xE000EDFC) >0x35 TIF> -- CPU is running -- CPU_WriteMem(4 bytes @ 0xE000ED0C) -- CPU is running -- CPU_ReadMem(4 bytes @ 0xE000EDF0) -- CPU is running -- CPU_ReadMem(4 bytes @ 0xE000EDF0) -- CPU is running -- CPU_WriteMem(4 bytes @ 0xE000EDF0) -- CPU is running -- CPU_WriteMem(4 bytes @ 0xE000EDFC) -- CPU is running -- CPU_ReadMem(4 bytes @ 0xE000EDF0)
 -- CPU_WriteMem(4 bytes @ 0xE0002000) -- CPU_ReadMem(4 bytes @ 0xE000EDFC) -- CPU_ReadMem(4 bytes @ 0xE0001000) (0013ms, 0154ms total)
T3430 000:162 JLINK_ReadReg(R15 (PC))  returns 0x080001A4 (0000ms, 0154ms total)
T3430 000:162 JLINK_ReadReg(XPSR)  returns 0x01000000 (0000ms, 0154ms total)
T3430 000:162 JLINK_Halt()  returns 0x00 (0000ms, 0154ms total)
T3430 000:162 JLINK_IsHalted()  returns TRUE (0000ms, 0154ms total)
T3430 000:162 JLINK_ReadMemU32(0xE000EDF0, 0x0001 Items, ...) -- CPU_ReadMem(4 bytes @ 0xE000EDF0) - Data: 03 00 03 00  returns 0x01 (0001ms, 0155ms total)
T3430 000:163 JLINK_WriteU32(0xE000EDF0, 0xA05F0003) -- CPU_WriteMem(4 bytes @ 0xE000EDF0)  returns 0x00 (0000ms, 0155ms total)
T3430 000:163 JLINK_WriteU32(0xE000EDFC, 0x01000000) -- CPU_WriteMem(4 bytes @ 0xE000EDFC)  returns 0x00 (0000ms, 0155ms total)
T3430 000:163 JLINK_GetHWStatus(...)  returns 0x00 (0000ms, 0155ms total)
T3430 000:163 JLINK_GetNumBPUnits(Type = 0xFFFFFF00)  returns 0x06 (0000ms, 0155ms total)
T3430 000:163 JLINK_GetNumBPUnits(Type = 0xF0)  returns 0x2000 (0000ms, 0155ms total)
T3430 000:163 JLINK_GetNumWPUnits()  returns 0x04 (0000ms, 0155ms total)
T3430 000:163 JLINK_GetSpeed()  returns 0xFA0 (0000ms, 0155ms total)
T3430 000:163 JLINK_ReadMemU32(0xE000E004, 0x0001 Items, ...) -- CPU_ReadMem(4 bytes @ 0xE000E004) - Data: 01 00 00 00  returns 0x01 (0000ms, 0155ms total)
T3430 000:163 JLINK_ReadMemU32(0xE000E004, 0x0001 Items, ...) -- CPU_ReadMem(4 bytes @ 0xE000E004) - Data: 01 00 00 00  returns 0x01 (0001ms, 0156ms total)
T3430 000:164 JLINK_WriteMem(0xE0001000, 0x001C Bytes, ...) - Data: 01 00 00 00 00 00 00 00 00 00 00 00 00 00 00 00 ... -- CPU_WriteMem(28 bytes @ 0xE0001000)  returns 0x1C (0000ms, 0156ms total)
T3430 000:164 JLINK_ReadMem (0xE0001000, 0x001C Bytes, ...) -- CPU_ReadMem(28 bytes @ 0xE0001000) - Data: 01 00 00 40 00 00 00 00 00 00 00 00 00 00 00 00 ...  returns 0x00 (0001ms, 0157ms total)
T3430 000:165 JLINK_ReadReg(R15 (PC))  returns 0x080001A4 (0000ms, 0157ms total)
T3430 000:165 JLINK_ReadReg(XPSR)  returns 0x01000000 (0000ms, 0157ms total)
T3430 000:195 JLINK_WriteMem(0x08000000, 0x0400 Bytes, ...) - Data: 20 34 00 20 A5 01 00 08 99 34 00 08 5F 2F 00 08 ...  returns 0x400 (0000ms, 0157ms total)
T3430 000:195 JLINK_WriteMem(0x08000400, 0x0400 Bytes, ...) - Data: A0 62 E0 6A 40 F0 04 00 E0 62 20 46 00 F0 BB F9 ...  returns 0x400 (0000ms, 0157ms total)
T3430 000:195 JLINK_WriteMem(0x08000800, 0x0400 Bytes, ...) - Data: 02 D1 4F F4 80 70 00 E0 00 20 05 43 60 69 01 28 ...  returns 0x400 (0000ms, 0157ms total)
T3430 000:195 JLINK_WriteMem(0x08000C00, 0x0400 Bytes, ...) - Data: EE E7 00 00 10 B5 04 46 C1 48 00 68 C0 4A 08 32 ...  returns 0x400 (0000ms, 0157ms total)
T3430 000:195 JLINK_ReadMem (0x08000000, 0x1000 Bytes, ...) -- Read from flash cache (4096 bytes @ 0x08000000) - Data: 20 34 00 20 A5 01 00 08 99 34 00 08 5F 2F 00 08 ...  returns 0x00 (0000ms, 0157ms total)
T3430 000:196 JLINK_WriteMem(0x08001000, 0x0400 Bytes, ...) - Data: 40 21 06 48 00 F0 AA F9 30 B9 17 20 00 F0 60 FA ...  returns 0x400 (0000ms, 0157ms total)
T3430 000:196 JLINK_WriteMem(0x08001400, 0x0400 Bytes, ...) - Data: 0D 48 B5 FB F0 F0 46 1E 0C 48 0D 49 08 60 40 F2 ...  returns 0x400 (0000ms, 0157ms total)
T3430 000:196 JLINK_WriteMem(0x08001800, 0x0400 Bytes, ...) - Data: 0F E0 20 20 01 05 91 FA A1 F1 B1 FA 81 F1 08 43 ...  returns 0x400 (0000ms, 0157ms total)
T3430 000:196 JLINK_WriteMem(0x08001C00, 0x0400 Bytes, ...) - Data: 40 F4 80 30 08 60 0A E0 C1 48 00 68 20 F4 80 30 ...  returns 0x400 (0000ms, 0157ms total)
T3430 000:196 JLINK_ReadMem (0x08001000, 0x1000 Bytes, ...) -- Read from flash cache (4096 bytes @ 0x08001000) - Data: 40 21 06 48 00 F0 AA F9 30 B9 17 20 00 F0 60 FA ...  returns 0x00 (0000ms, 0157ms total)
T3430 000:196 JLINK_WriteMem(0x08002000, 0x0400 Bytes, ...) - Data: 00 F0 04 00 04 28 75 D1 00 BF C2 48 C0 69 40 F0 ...  returns 0x400 (0000ms, 0157ms total)
T3430 000:196 JLINK_WriteMem(0x08002400, 0x0400 Bytes, ...) - Data: 20 F4 00 60 21 68 C8 61 00 20 04 49 08 70 60 65 ...  returns 0x400 (0000ms, 0157ms total)
T3430 000:196 JLINK_WriteMem(0x08002800, 0x0400 Bytes, ...) - Data: 00 6A 41 F2 11 12 10 40 50 B9 08 68 00 6A 92 10 ...  returns 0x400 (0000ms, 0157ms total)
T3430 000:196 JLINK_WriteMem(0x08002C00, 0x0400 Bytes, ...) - Data: 39 00 20 46 FF F7 93 FF F8 BD 10 B5 04 46 0C B9 ...  returns 0x400 (0000ms, 0157ms total)
T3430 000:196 JLINK_ReadMem (0x08002000, 0x1000 Bytes, ...) -- Read from flash cache (4096 bytes @ 0x08002000) - Data: 00 F0 04 00 04 28 75 D1 00 BF C2 48 C0 69 40 F0 ...  returns 0x00 (0000ms, 0157ms total)
T3430 000:197 JLINK_WriteMem(0x08003000, 0x0400 Bytes, ...) - Data: 1E 48 9D E8 1E 00 1E C0 00 23 0A 22 1B 49 20 48 ...  returns 0x400 (0000ms, 0157ms total)
T3430 000:197 JLINK_WriteMem(0x08003400, 0x0400 Bytes, ...) - Data: 01 A9 05 48 FF F7 76 F9 08 B1 FD F7 C3 F8 07 B0 ...  returns 0x400 (0000ms, 0157ms total)
T3430 000:197 JLINK_WriteMem(0x08003800, 0x0400 Bytes, ...) - Data: 10 00 E0 63 20 46 FF F7 92 F9 70 BD 70 B5 05 46 ...  returns 0x400 (0000ms, 0157ms total)
T3430 000:197 JLINK_WriteMem(0x08003C00, 0x0400 Bytes, ...) - Data: F5 D1 11 B0 30 46 BD E8 F0 8F 00 24 A2 46 A1 46 ...  returns 0x400 (0000ms, 0157ms total)
T3430 000:197 JLINK_ReadMem (0x08003000, 0x1000 Bytes, ...) -- Read from flash cache (4096 bytes @ 0x08003000) - Data: 1E 48 9D E8 1E 00 1E C0 00 23 0A 22 1B 49 20 48 ...  returns 0x00 (0000ms, 0157ms total)
T3430 000:198 JLINK_WriteMem(0x08004000, 0x0400 Bytes, ...) - Data: 05 E0 39 46 20 20 B0 47 6D 1C 64 1E F9 D5 28 46 ...  returns 0x400 (0000ms, 0157ms total)
T3430 000:198 JLINK_WriteMem(0x08004400, 0x0400 Bytes, ...) - Data: E4 00 00 20 F8 00 00 20 EC 00 00 20 E8 00 00 20 ...  returns 0x400 (0000ms, 0157ms total)
T3430 000:198 JLINK_WriteMem(0x08004800, 0x0400 Bytes, ...) - Data: 00 28 EA DC 00 BF 4F F0 FF 30 A0 64 00 F0 84 F9 ...  returns 0x400 (0000ms, 0157ms total)
T3430 000:198 JLINK_WriteMem(0x08004C00, 0x0400 Bytes, ...) - Data: FB F7 C2 FA 00 BF FE E7 09 48 00 68 00 F4 E0 60 ...  returns 0x400 (0000ms, 0157ms total)
T3430 000:198 JLINK_ReadMem (0x08004000, 0x1000 Bytes, ...) -- Read from flash cache (4096 bytes @ 0x08004000) - Data: 05 E0 39 46 20 20 B0 47 6D 1C 64 1E F9 D5 28 46 ...  returns 0x00 (0000ms, 0157ms total)
T3430 000:198 JLINK_WriteMem(0x08005000, 0x0400 Bytes, ...) - Data: 54 00 20 60 E6 63 25 64 01 21 20 46 00 F0 BA F8 ...  returns 0x400 (0000ms, 0157ms total)
T3430 000:198 JLINK_WriteMem(0x08005400, 0x0400 Bytes, ...) - Data: FE E7 FF F7 EB FB FA F7 BF FE 81 46 A0 6B E8 B1 ...  returns 0x400 (0000ms, 0157ms total)
T3430 000:198 JLINK_WriteMem(0x08005800, 0x0400 Bytes, ...) - Data: 30 46 70 BD E4 00 00 20 30 2F 00 20 FC 00 00 20 ...  returns 0x400 (0000ms, 0157ms total)
T3430 000:198 JLINK_WriteMem(0x08005C00, 0x0090 Bytes, ...) - Data: 50 5B 00 08 50 5B 00 08 64 5A 00 08 50 5B 00 08 ...  returns 0x90 (0000ms, 0157ms total)
T3430 000:198 JLINK_ReadMem (0x08005000, 0x0C90 Bytes, ...) -- Read from flash cache (3216 bytes @ 0x08005000) - Data: 54 00 20 60 E6 63 25 64 01 21 20 46 00 F0 BA F8 ...  returns 0x00 (0000ms, 0157ms total)
T3430 000:251 JLINK_SetResetType(JLINKARM_RESET_TYPE_NORMAL)  returns JLINKARM_RESET_TYPE_NORMAL (0000ms, 0157ms total)
T3430 000:251 JLINK_Reset() -- -------------------------------------- -- Start of determining dirty areas in flash cache -- End of determining dirty areas -- Start of preparing flash programming -- Calculating RAM usage -- RAM usage = 4028 Bytes -- Preserving CPU registers -- Preparing memory -- Determining CPU clock frequency -- Preparing target -- Downloading RAMCode -- Checking target RAM -- Preparing RAMCode -- End of preparing flash programming -- CPU speed could not be measured.
 -- Start of comparing flash -- CRC check was estimated as fastest method -- Comparing range 0x8000000 - 0x8005FFF (24 Sectors, 24 KB), using multi-block CRC calculation -- All CRCs match -- Comparing range 0x8000000 - 0x8005FFF (24 Sectors, 24 KB), using alternative multi-block CRC calculation -- All CRCs match -- End of comparing flash -- Start of erasing sectors -- End of erasing sectors -- Start of flash programming -- End of flash programming -- Start of verifying flash -- End of verifying flash
 -- Start of restoring -- Restoring RAMCode -- Restore target -- Restore memory -- Restoring CPU registers -- End of restoring -- Flash download skipped. Flash contents already match -- Flash download skipped. Flash contents already match -- CPU_WriteMem(4 bytes @ 0xE000EDF0) -- CPU_WriteMem(4 bytes @ 0xE000EDFC) >0x35 TIF> -- CPU_WriteMem(4 bytes @ 0xE000ED0C) -- CPU_ReadMem(4 bytes @ 0xE000EDF0) -- CPU_ReadMem(4 bytes @ 0xE000EDF0) -- CPU_WriteMem(4 bytes @ 0xE000EDF0)
 -- CPU_WriteMem(4 bytes @ 0xE000EDFC) -- CPU is running -- CPU_ReadMem(4 bytes @ 0xE000EDF0) -- CPU_WriteMem(4 bytes @ 0xE0002000) -- CPU_ReadMem(4 bytes @ 0xE000EDFC) -- CPU_ReadMem(4 bytes @ 0xE0001000) (0168ms, 0325ms total)
T3430 000:419 JLINK_ReadReg(R15 (PC))  returns 0x080001A4 (0000ms, 0325ms total)
T3430 000:419 JLINK_ReadReg(XPSR)  returns 0x01000000 (0000ms, 0325ms total)
T3430 000:420 JLINK_ReadMem (0x080000EC, 0x003C Bytes, ...) -- Read from flash cache (60 bytes @ 0x080000EC) - Data: DF F8 0C D0 00 F0 D0 F8 00 48 00 47 ED 40 00 08 ...  returns 0x00 (0000ms, 0325ms total)
T3430 000:420 JLINK_ReadMem (0x08000128, 0x003C Bytes, ...) -- Read from flash cache (60 bytes @ 0x08000128) - Data: 00 68 80 F3 08 88 62 B6 61 B6 BF F3 4F 8F BF F3 ...  returns 0x00 (0000ms, 0325ms total)
T3430 000:420 JLINK_ReadMem (0x08000164, 0x003C Bytes, ...) -- Read from flash cache (60 bytes @ 0x08000164) - Data: 4F F0 00 00 80 F3 11 88 BD E8 08 40 19 68 08 68 ...  returns 0x00 (0000ms, 0325ms total)
T3430 000:420 JLINK_ReadMem (0x080001A0, 0x003C Bytes, ...) -- Read from flash cache (60 bytes @ 0x080001A0) - Data: 70 47 00 00 06 48 80 47 06 48 00 47 FE E7 FE E7 ...  returns 0x00 (0000ms, 0325ms total)
T3430 000:488 JLINK_ReadMem (0x40012400, 0x004C Bytes, ...) -- CPU_ReadMem(76 bytes @ 0x40012400) - Data: 00 00 00 00 00 00 00 00 00 00 00 00 00 00 00 00 ...  returns 0x00 (0000ms, 0325ms total)
T3430 000:488 JLINK_ReadMem (0x4001244C, 0x0004 Bytes, ...) -- CPU_ReadMem(4 bytes @ 0x4001244C) - Data: 00 00 00 00  returns 0x00 (0001ms, 0326ms total)
T3430 000:514 JLINK_ReadMem (0x40020000, 0x0004 Bytes, ...) -- CPU_ReadMem(4 bytes @ 0x40020000) - Data: 00 00 00 00  returns 0x00 (0000ms, 0326ms total)
T3430 000:514 JLINK_ReadMem (0x40020008, 0x000C Bytes, ...) -- CPU_ReadMem(12 bytes @ 0x40020008) - Data: 00 00 00 00 00 00 00 00 00 00 00 00  returns 0x00 (0001ms, 0327ms total)
T3430 000:515 JLINK_ReadMem (0x40020014, 0x0004 Bytes, ...) -- CPU_ReadMem(4 bytes @ 0x40020014) - Data: 00 00 00 00  returns 0x00 (0000ms, 0327ms total)
T3430 000:515 JLINK_ReadMem (0x4002001C, 0x000C Bytes, ...) -- CPU_ReadMem(12 bytes @ 0x4002001C) - Data: 00 00 00 00 00 00 00 00 00 00 00 00  returns 0x00 (0000ms, 0327ms total)
T3430 000:515 JLINK_ReadMem (0x40020028, 0x0004 Bytes, ...) -- CPU_ReadMem(4 bytes @ 0x40020028) - Data: 00 00 00 00  returns 0x00 (0000ms, 0327ms total)
T3430 000:515 JLINK_ReadMem (0x40020030, 0x000C Bytes, ...) -- CPU_ReadMem(12 bytes @ 0x40020030) - Data: 00 00 00 00 00 00 00 00 00 00 00 00  returns 0x00 (0001ms, 0328ms total)
T3430 000:516 JLINK_ReadMem (0x4002003C, 0x0004 Bytes, ...) -- CPU_ReadMem(4 bytes @ 0x4002003C) - Data: 00 00 00 00  returns 0x00 (0000ms, 0328ms total)
T3430 000:516 JLINK_ReadMem (0x40020044, 0x000C Bytes, ...) -- CPU_ReadMem(12 bytes @ 0x40020044) - Data: 00 00 00 00 00 00 00 00 00 00 00 00  returns 0x00 (0000ms, 0328ms total)
T3430 000:516 JLINK_ReadMem (0x40020050, 0x0004 Bytes, ...) -- CPU_ReadMem(4 bytes @ 0x40020050) - Data: 00 00 00 00  returns 0x00 (0000ms, 0328ms total)
T3430 000:516 JLINK_ReadMem (0x40020058, 0x000C Bytes, ...) -- CPU_ReadMem(12 bytes @ 0x40020058) - Data: 00 00 00 00 00 00 00 00 00 00 00 00  returns 0x00 (0001ms, 0329ms total)
T3430 000:517 JLINK_ReadMem (0x40020064, 0x0004 Bytes, ...) -- CPU_ReadMem(4 bytes @ 0x40020064) - Data: 00 00 00 00  returns 0x00 (0000ms, 0329ms total)
T3430 000:517 JLINK_ReadMem (0x4002006C, 0x000C Bytes, ...) -- CPU_ReadMem(12 bytes @ 0x4002006C) - Data: 00 00 00 00 00 00 00 00 00 00 00 00  returns 0x00 (0000ms, 0329ms total)
T3430 000:517 JLINK_ReadMem (0x40020078, 0x0004 Bytes, ...) -- CPU_ReadMem(4 bytes @ 0x40020078) - Data: 00 00 00 00  returns 0x00 (0000ms, 0329ms total)
T3430 000:517 JLINK_ReadMem (0x40020080, 0x000C Bytes, ...) -- CPU_ReadMem(12 bytes @ 0x40020080) - Data: 00 00 00 00 00 00 00 00 00 00 00 00  returns 0x00 (0001ms, 0330ms total)
T3430 000:518 JLINK_ReadMem (0x4002008C, 0x0004 Bytes, ...) -- CPU_ReadMem(4 bytes @ 0x4002008C) - Data: 00 00 00 00  returns 0x00 (0000ms, 0330ms total)
T3430 000:544 JLINK_ReadMem (0x40010400, 0x0014 Bytes, ...) -- CPU_ReadMem(20 bytes @ 0x40010400) - Data: 00 00 00 00 00 00 00 00 00 00 00 00 00 00 00 00 ...  returns 0x00 (0000ms, 0330ms total)
T3430 000:544 JLINK_ReadMem (0x40010414, 0x0004 Bytes, ...) -- CPU_ReadMem(4 bytes @ 0x40010414) - Data: 00 00 00 00  returns 0x00 (0000ms, 0330ms total)
T3430 000:570 JLINK_ReadMem (0x40010C00, 0x000C Bytes, ...) -- CPU_ReadMem(12 bytes @ 0x40010C00) - Data: 44 44 48 44 44 44 44 44 00 00 00 00  returns 0x00 (0000ms, 0330ms total)
T3430 000:570 JLINK_ReadMem (0x40010C0C, 0x0004 Bytes, ...) -- CPU_ReadMem(4 bytes @ 0x40010C0C) - Data: 10 00 00 00  returns 0x00 (0001ms, 0331ms total)
T3430 000:571 JLINK_ReadMem (0x40010C18, 0x0004 Bytes, ...) -- CPU_ReadMem(4 bytes @ 0x40010C18) - Data: 00 00 00 00  returns 0x00 (0000ms, 0331ms total)
T3430 000:597 JLINK_ReadMem (0x40013000, 0x0020 Bytes, ...) -- CPU_ReadMem(32 bytes @ 0x40013000) - Data: 00 00 00 00 00 00 00 00 00 00 00 00 00 00 00 00 ...  returns 0x00 (0000ms, 0331ms total)
T3430 000:597 JLINK_ReadMem (0x40013020, 0x0004 Bytes, ...) -- CPU_ReadMem(4 bytes @ 0x40013020) - Data: 00 00 00 00  returns 0x00 (0000ms, 0331ms total)
T3430 000:624 JLINK_ReadMem (0x40000800, 0x0010 Bytes, ...) -- CPU_ReadMem(16 bytes @ 0x40000800) - Data: 00 00 00 00 00 00 00 00 00 00 00 00 00 00 00 00  returns 0x00 (0000ms, 0331ms total)
T3430 000:624 JLINK_ReadMem (0x40000810, 0x0004 Bytes, ...) -- CPU_ReadMem(4 bytes @ 0x40000810) - Data: 00 00 00 00  returns 0x00 (0001ms, 0332ms total)
T3430 000:625 JLINK_ReadMem (0x40000818, 0x0014 Bytes, ...) -- CPU_ReadMem(20 bytes @ 0x40000818) - Data: 00 00 00 00 00 00 00 00 00 00 00 00 00 00 00 00 ...  returns 0x00 (0000ms, 0332ms total)
T3430 000:625 JLINK_ReadMem (0x4000082C, 0x0004 Bytes, ...) -- CPU_ReadMem(4 bytes @ 0x4000082C) - Data: 00 00 00 00  returns 0x00 (0000ms, 0332ms total)
T3430 000:625 JLINK_ReadMem (0x40000834, 0x000C Bytes, ...) -- CPU_ReadMem(12 bytes @ 0x40000834) - Data: 00 00 00 00 00 00 00 00 00 00 00 00  returns 0x00 (0000ms, 0332ms total)
T3430 000:625 JLINK_ReadMem (0x40000840, 0x0004 Bytes, ...) -- CPU_ReadMem(4 bytes @ 0x40000840) - Data: 00 00 00 00  returns 0x00 (0001ms, 0333ms total)
T3430 000:626 JLINK_ReadMem (0x40000848, 0x0004 Bytes, ...) -- CPU_ReadMem(4 bytes @ 0x40000848) - Data: 00 00 00 00  returns 0x00 (0000ms, 0333ms total)
T3430 000:626 JLINK_ReadMem (0x4000084C, 0x0004 Bytes, ...) -- CPU_ReadMem(4 bytes @ 0x4000084C) - Data: 00 00 00 00  returns 0x00 (0000ms, 0333ms total)
T3430 000:654 JLINK_ReadMem (0x40013800, 0x0018 Bytes, ...) -- CPU_ReadMem(24 bytes @ 0x40013800) - Data: 00 00 00 00 00 00 00 00 00 00 00 00 00 00 00 00 ...  returns 0x00 (0001ms, 0334ms total)
T3430 000:655 JLINK_ReadMem (0x40013818, 0x0004 Bytes, ...) -- CPU_ReadMem(4 bytes @ 0x40013818) - Data: 00 00 00 00  returns 0x00 (0000ms, 0334ms total)
T25BC 001:656 JLINK_SetBPEx(Addr = 0x080040EC, Type = 0xFFFFFFF2)  returns 0x00000001 (0000ms, 0334ms total)
T25BC 001:656 JLINK_Go() -- CPU_WriteMem(4 bytes @ 0xE0002000) -- CPU_ReadMem(4 bytes @ 0xE0001000) -- CPU_WriteMem(4 bytes @ 0xE0002008) -- CPU_WriteMem(4 bytes @ 0xE000200C) -- CPU_WriteMem(4 bytes @ 0xE0002010) -- CPU_WriteMem(4 bytes @ 0xE0002014) -- CPU_WriteMem(4 bytes @ 0xE0002018) -- CPU_WriteMem(4 bytes @ 0xE000201C) -- CPU_WriteMem(4 bytes @ 0xE0001004) (0002ms, 0336ms total)
T25BC 001:759 JLINK_IsHalted()  returns TRUE (0001ms, 0337ms total)
T25BC 001:760 JLINK_Halt()  returns 0x00 (0000ms, 0336ms total)
T25BC 001:760 JLINK_IsHalted()  returns TRUE (0000ms, 0336ms total)
T25BC 001:760 JLINK_IsHalted()  returns TRUE (0000ms, 0336ms total)
T25BC 001:760 JLINK_IsHalted()  returns TRUE (0000ms, 0336ms total)
T25BC 001:760 JLINK_ReadReg(R15 (PC))  returns 0x080040EC (0000ms, 0336ms total)
T25BC 001:760 JLINK_ReadReg(XPSR)  returns 0x61000000 (0000ms, 0336ms total)
T25BC 001:760 JLINK_ClrBPEx(BPHandle = 0x00000001)  returns 0x00 (0000ms, 0336ms total)
T25BC 001:760 JLINK_ReadMemU32(0xE000ED30, 0x0001 Items, ...) -- CPU_ReadMem(4 bytes @ 0xE000ED30) - Data: 02 00 00 00  returns 0x01 (0001ms, 0337ms total)
T25BC 001:761 JLINK_ReadMemU32(0xE0001028, 0x0001 Items, ...) -- CPU_ReadMem(4 bytes @ 0xE0001028) - Data: 00 00 00 00  returns 0x01 (0000ms, 0337ms total)
T25BC 001:761 JLINK_ReadMemU32(0xE0001038, 0x0001 Items, ...) -- CPU_ReadMem(4 bytes @ 0xE0001038) - Data: 00 02 00 00  returns 0x01 (0000ms, 0337ms total)
T25BC 001:761 JLINK_ReadMemU32(0xE0001048, 0x0001 Items, ...) -- CPU_ReadMem(4 bytes @ 0xE0001048) - Data: 00 00 00 00  returns 0x01 (0000ms, 0337ms total)
T25BC 001:761 JLINK_ReadMemU32(0xE0001058, 0x0001 Items, ...) -- CPU_ReadMem(4 bytes @ 0xE0001058) - Data: 00 00 00 00  returns 0x01 (0001ms, 0338ms total)
T25BC 001:762 JLINK_ReadReg(R0)  returns 0x080040ED (0000ms, 0338ms total)
T25BC 001:762 JLINK_ReadReg(R1)  returns 0x20003420 (0000ms, 0338ms total)
T25BC 001:762 JLINK_ReadReg(R2)  returns 0x00000000 (0000ms, 0338ms total)
T25BC 001:762 JLINK_ReadReg(R3)  returns 0x08003BD1 (0000ms, 0338ms total)
T25BC 001:762 JLINK_ReadReg(R4)  returns 0x08005B74 (0000ms, 0338ms total)
T25BC 001:762 JLINK_ReadReg(R5)  returns 0x08005B74 (0000ms, 0338ms total)
T25BC 001:762 JLINK_ReadReg(R6)  returns 0x20000714 (0000ms, 0338ms total)
T25BC 001:762 JLINK_ReadReg(R7)  returns 0x00000000 (0000ms, 0338ms total)
T25BC 001:762 JLINK_ReadReg(R8)  returns 0xA5A5A5A5 (0000ms, 0338ms total)
T25BC 001:762 JLINK_ReadReg(R9)  returns 0x00000001 (0000ms, 0338ms total)
T25BC 001:762 JLINK_ReadReg(R10)  returns 0xA5A5A5A5 (0000ms, 0338ms total)
T25BC 001:762 JLINK_ReadReg(R11)  returns 0xA5A5A5A5 (0000ms, 0338ms total)
T25BC 001:762 JLINK_ReadReg(R12)  returns 0x20000630 (0000ms, 0338ms total)
T25BC 001:762 JLINK_ReadReg(R13 (SP))  returns 0x20003420 (0000ms, 0338ms total)
T25BC 001:762 JLINK_ReadReg(R14)  returns 0x080002B1 (0000ms, 0338ms total)
T25BC 001:762 JLINK_ReadReg(R15 (PC))  returns 0x080040EC (0000ms, 0338ms total)
T25BC 001:762 JLINK_ReadReg(XPSR)  returns 0x61000000 (0000ms, 0338ms total)
T25BC 001:762 JLINK_ReadReg(MSP)  returns 0x20003420 (0000ms, 0338ms total)
T25BC 001:762 JLINK_ReadReg(PSP)  returns 0x20001EC8 (0000ms, 0338ms total)
T25BC 001:762 JLINK_ReadReg(CFBP)  returns 0x00000000 (0000ms, 0338ms total)
T3430 001:765 JLINK_ReadMem (0x40012400, 0x004C Bytes, ...) -- CPU_ReadMem(76 bytes @ 0x40012400) - Data: 00 00 00 00 00 00 00 00 00 00 00 00 00 00 00 00 ...  returns 0x00 (0000ms, 0338ms total)
T3430 001:765 JLINK_ReadMem (0x4001244C, 0x0004 Bytes, ...) -- CPU_ReadMem(4 bytes @ 0x4001244C) - Data: 00 00 00 00  returns 0x00 (0001ms, 0339ms total)
T3430 001:766 JLINK_ReadMem (0x40000800, 0x0010 Bytes, ...) -- CPU_ReadMem(16 bytes @ 0x40000800) - Data: 00 00 00 00 00 00 00 00 00 00 00 00 00 00 00 00  returns 0x00 (0000ms, 0339ms total)
T3430 001:766 JLINK_ReadMem (0x40000810, 0x0004 Bytes, ...) -- CPU_ReadMem(4 bytes @ 0x40000810) - Data: 00 00 00 00  returns 0x00 (0000ms, 0339ms total)
T3430 001:767 JLINK_ReadMem (0x40000818, 0x0014 Bytes, ...) -- CPU_ReadMem(20 bytes @ 0x40000818) - Data: 00 00 00 00 00 00 00 00 00 00 00 00 00 00 00 00 ...  returns 0x00 (0000ms, 0340ms total)
T3430 001:767 JLINK_ReadMem (0x4000082C, 0x0004 Bytes, ...) -- CPU_ReadMem(4 bytes @ 0x4000082C) - Data: 00 00 00 00  returns 0x00 (0000ms, 0340ms total)
T3430 001:767 JLINK_ReadMem (0x40000834, 0x000C Bytes, ...) -- CPU_ReadMem(12 bytes @ 0x40000834) - Data: 00 00 00 00 00 00 00 00 00 00 00 00  returns 0x00 (0000ms, 0340ms total)
T3430 001:767 JLINK_ReadMem (0x40000840, 0x0004 Bytes, ...) -- CPU_ReadMem(4 bytes @ 0x40000840) - Data: 00 00 00 00  returns 0x00 (0001ms, 0341ms total)
T3430 001:768 JLINK_ReadMem (0x40000848, 0x0004 Bytes, ...) -- CPU_ReadMem(4 bytes @ 0x40000848) - Data: 00 00 00 00  returns 0x00 (0000ms, 0341ms total)
T3430 001:768 JLINK_ReadMem (0x4000084C, 0x0004 Bytes, ...) -- CPU_ReadMem(4 bytes @ 0x4000084C) - Data: 00 00 00 00  returns 0x00 (0000ms, 0341ms total)
T3430 001:768 JLINK_ReadMem (0x40010400, 0x0014 Bytes, ...) -- CPU_ReadMem(20 bytes @ 0x40010400) - Data: 00 00 00 00 00 00 00 00 00 00 00 00 00 00 00 00 ...  returns 0x00 (0001ms, 0342ms total)
T3430 001:769 JLINK_ReadMem (0x40010414, 0x0004 Bytes, ...) -- CPU_ReadMem(4 bytes @ 0x40010414) - Data: 00 00 00 00  returns 0x00 (0000ms, 0342ms total)
T3430 001:769 JLINK_ReadMem (0x40010C00, 0x000C Bytes, ...) -- CPU_ReadMem(12 bytes @ 0x40010C00) - Data: 44 44 48 44 44 44 44 44 00 00 00 00  returns 0x00 (0000ms, 0342ms total)
T3430 001:769 JLINK_ReadMem (0x40010C0C, 0x0004 Bytes, ...) -- CPU_ReadMem(4 bytes @ 0x40010C0C) - Data: 10 00 00 00  returns 0x00 (0001ms, 0343ms total)
T3430 001:770 JLINK_ReadMem (0x40010C18, 0x0004 Bytes, ...) -- CPU_ReadMem(4 bytes @ 0x40010C18) - Data: 00 00 00 00  returns 0x00 (0000ms, 0343ms total)
T3430 001:770 JLINK_ReadMem (0x40013000, 0x0020 Bytes, ...) -- CPU_ReadMem(32 bytes @ 0x40013000) - Data: 00 00 00 00 00 00 00 00 00 00 00 00 00 00 00 00 ...  returns 0x00 (0000ms, 0343ms total)
T3430 001:770 JLINK_ReadMem (0x40013020, 0x0004 Bytes, ...) -- CPU_ReadMem(4 bytes @ 0x40013020) - Data: 00 00 00 00  returns 0x00 (0001ms, 0344ms total)
T3430 001:771 JLINK_ReadMem (0x40020000, 0x0004 Bytes, ...) -- CPU_ReadMem(4 bytes @ 0x40020000) - Data: 00 00 00 00  returns 0x00 (0000ms, 0344ms total)
T3430 001:771 JLINK_ReadMem (0x40020008, 0x000C Bytes, ...) -- CPU_ReadMem(12 bytes @ 0x40020008) - Data: 00 00 00 00 00 00 00 00 00 00 00 00  returns 0x00 (0000ms, 0344ms total)
T3430 001:771 JLINK_ReadMem (0x40020014, 0x0004 Bytes, ...) -- CPU_ReadMem(4 bytes @ 0x40020014) - Data: 00 00 00 00  returns 0x00 (0001ms, 0345ms total)
T3430 001:772 JLINK_ReadMem (0x4002001C, 0x000C Bytes, ...) -- CPU_ReadMem(12 bytes @ 0x4002001C) - Data: 00 00 00 00 00 00 00 00 00 00 00 00  returns 0x00 (0000ms, 0345ms total)
T3430 001:772 JLINK_ReadMem (0x40020028, 0x0004 Bytes, ...) -- CPU_ReadMem(4 bytes @ 0x40020028) - Data: 00 00 00 00  returns 0x00 (0000ms, 0345ms total)
T3430 001:772 JLINK_ReadMem (0x40020030, 0x000C Bytes, ...) -- CPU_ReadMem(12 bytes @ 0x40020030) - Data: 00 00 00 00 00 00 00 00 00 00 00 00  returns 0x00 (0000ms, 0345ms total)
T3430 001:772 JLINK_ReadMem (0x4002003C, 0x0004 Bytes, ...) -- CPU_ReadMem(4 bytes @ 0x4002003C) - Data: 00 00 00 00  returns 0x00 (0000ms, 0345ms total)
T3430 001:772 JLINK_ReadMem (0x40020044, 0x000C Bytes, ...) -- CPU_ReadMem(12 bytes @ 0x40020044) - Data: 00 00 00 00 00 00 00 00 00 00 00 00  returns 0x00 (0001ms, 0346ms total)
T3430 001:773 JLINK_ReadMem (0x40020050, 0x0004 Bytes, ...) -- CPU_ReadMem(4 bytes @ 0x40020050) - Data: 00 00 00 00  returns 0x00 (0000ms, 0346ms total)
T3430 001:773 JLINK_ReadMem (0x40020058, 0x000C Bytes, ...) -- CPU_ReadMem(12 bytes @ 0x40020058) - Data: 00 00 00 00 00 00 00 00 00 00 00 00  returns 0x00 (0000ms, 0346ms total)
T3430 001:773 JLINK_ReadMem (0x40020064, 0x0004 Bytes, ...) -- CPU_ReadMem(4 bytes @ 0x40020064) - Data: 00 00 00 00  returns 0x00 (0000ms, 0346ms total)
T3430 001:773 JLINK_ReadMem (0x4002006C, 0x000C Bytes, ...) -- CPU_ReadMem(12 bytes @ 0x4002006C) - Data: 00 00 00 00 00 00 00 00 00 00 00 00  returns 0x00 (0001ms, 0347ms total)
T3430 001:774 JLINK_ReadMem (0x40020078, 0x0004 Bytes, ...) -- CPU_ReadMem(4 bytes @ 0x40020078) - Data: 00 00 00 00  returns 0x00 (0000ms, 0347ms total)
T3430 001:774 JLINK_ReadMem (0x40020080, 0x000C Bytes, ...) -- CPU_ReadMem(12 bytes @ 0x40020080) - Data: 00 00 00 00 00 00 00 00 00 00 00 00  returns 0x00 (0000ms, 0347ms total)
T3430 001:774 JLINK_ReadMem (0x4002008C, 0x0004 Bytes, ...) -- CPU_ReadMem(4 bytes @ 0x4002008C) - Data: 00 00 00 00  returns 0x00 (0000ms, 0347ms total)
T3430 001:775 JLINK_ReadMem (0x40013800, 0x0018 Bytes, ...) -- CPU_ReadMem(24 bytes @ 0x40013800) - Data: 00 00 00 00 00 00 00 00 00 00 00 00 00 00 00 00 ...  returns 0x00 (0000ms, 0347ms total)
T3430 001:775 JLINK_ReadMem (0x40013818, 0x0004 Bytes, ...) -- CPU_ReadMem(4 bytes @ 0x40013818) - Data: 00 00 00 00  returns 0x00 (0000ms, 0347ms total)
T3430 001:777 JLINK_ReadMem (0x08003FF0, 0x0010 Bytes, ...) -- Read from flash cache (16 bytes @ 0x08003FF0) - Data: 2D E9 F0 41 04 46 00 25 1E 46 17 46 88 04 04 D4  returns 0x00 (0000ms, 0347ms total)
T3430 001:777 JLINK_ReadMem (0x08004000, 0x002C Bytes, ...) -- Read from flash cache (44 bytes @ 0x08004000) - Data: 05 E0 39 46 20 20 B0 47 6D 1C 64 1E F9 D5 28 46 ...  returns 0x00 (0000ms, 0347ms total)
T3430 001:777 JLINK_ReadMem (0x0800402C, 0x003C Bytes, ...) -- Read from flash cache (60 bytes @ 0x0800402C) - Data: 04 D5 05 E0 41 46 38 46 B0 47 6D 1C 64 1E F9 D5 ...  returns 0x00 (0000ms, 0347ms total)
T3430 001:777 JLINK_ReadMem (0x08004068, 0x003C Bytes, ...) -- Read from flash cache (60 bytes @ 0x08004068) - Data: 06 20 00 E0 07 20 0C 49 08 70 08 46 05 71 20 46 ...  returns 0x00 (0000ms, 0347ms total)
T3430 001:777 JLINK_ReadMem (0x080040A8, 0x003C Bytes, ...) -- Read from flash cache (60 bytes @ 0x080040A8) - Data: 00 BF EF F3 05 80 08 B1 01 20 70 47 00 20 FC E7 ...  returns 0x00 (0000ms, 0347ms total)
T3430 001:777 JLINK_ReadMem (0x080040EA, 0x0002 Bytes, ...) -- Read from flash cache (2 bytes @ 0x080040EA) - Data: 01 40  returns 0x00 (0000ms, 0347ms total)
T3430 001:777 JLINK_ReadMem (0x080040EC, 0x003C Bytes, ...) -- Read from flash cache (60 bytes @ 0x080040EC) - Data: A2 B0 FD F7 51 F9 FF F7 82 FA FF F7 89 F8 FF F7 ...  returns 0x00 (0000ms, 0347ms total)
T3430 008:827 JLINK_SetResetType(JLINKARM_RESET_TYPE_NORMAL)  returns JLINKARM_RESET_TYPE_NORMAL (0000ms, 0347ms total)
T3430 008:827 JLINK_Reset() -- CPU_WriteMem(4 bytes @ 0xE000EDF0) -- CPU_WriteMem(4 bytes @ 0xE000EDFC) >0x35 TIF> -- CPU_WriteMem(4 bytes @ 0xE000ED0C) -- CPU_ReadMem(4 bytes @ 0xE000EDF0) -- CPU_ReadMem(4 bytes @ 0xE000EDF0) -- CPU_WriteMem(4 bytes @ 0xE000EDF0) -- CPU_WriteMem(4 bytes @ 0xE000EDFC) -- CPU is running -- CPU_ReadMem(4 bytes @ 0xE000EDF0) -- CPU_WriteMem(4 bytes @ 0xE0002000) -- CPU_ReadMem(4 bytes @ 0xE000EDFC) -- CPU_ReadMem(4 bytes @ 0xE0001000) (0014ms, 0361ms total)
T3430 008:841 JLINK_ReadReg(R15 (PC))  returns 0x080001A4 (0000ms, 0361ms total)
T3430 008:841 JLINK_ReadReg(XPSR)  returns 0x01000000 (0000ms, 0361ms total)
T3430 008:843 JLINK_ReadMem (0x080000EC, 0x003C Bytes, ...) -- Read from flash cache (60 bytes @ 0x080000EC) - Data: DF F8 0C D0 00 F0 D0 F8 00 48 00 47 ED 40 00 08 ...  returns 0x00 (0000ms, 0361ms total)
T3430 008:843 JLINK_ReadMem (0x08000128, 0x003C Bytes, ...) -- Read from flash cache (60 bytes @ 0x08000128) - Data: 00 68 80 F3 08 88 62 B6 61 B6 BF F3 4F 8F BF F3 ...  returns 0x00 (0000ms, 0361ms total)
T3430 008:843 JLINK_ReadMem (0x08000164, 0x003C Bytes, ...) -- Read from flash cache (60 bytes @ 0x08000164) - Data: 4F F0 00 00 80 F3 11 88 BD E8 08 40 19 68 08 68 ...  returns 0x00 (0000ms, 0361ms total)
T3430 008:843 JLINK_ReadMem (0x080001A0, 0x003C Bytes, ...) -- Read from flash cache (60 bytes @ 0x080001A0) - Data: 70 47 00 00 06 48 80 47 06 48 00 47 FE E7 FE E7 ...  returns 0x00 (0000ms, 0361ms total)
T25BC 009:316 JLINK_SetBPEx(Addr = 0x0800031A, Type = 0xFFFFFFF2)  returns 0x00000002 (0000ms, 0361ms total)
T25BC 009:316 JLINK_Go() -- CPU_WriteMem(4 bytes @ 0xE0002000) -- CPU_ReadMem(4 bytes @ 0xE0001000) -- CPU_WriteMem(4 bytes @ 0xE0002008) -- CPU_WriteMem(4 bytes @ 0xE000200C) -- CPU_WriteMem(4 bytes @ 0xE0002010) -- CPU_WriteMem(4 bytes @ 0xE0002014) -- CPU_WriteMem(4 bytes @ 0xE0002018) -- CPU_WriteMem(4 bytes @ 0xE000201C) -- CPU_WriteMem(4 bytes @ 0xE0001004) (0002ms, 0363ms total)
T25BC 009:419 JLINK_IsHalted()  returns TRUE (0001ms, 0364ms total)
T25BC 009:420 JLINK_Halt()  returns 0x00 (0000ms, 0363ms total)
T25BC 009:420 JLINK_IsHalted()  returns TRUE (0000ms, 0363ms total)
T25BC 009:420 JLINK_IsHalted()  returns TRUE (0000ms, 0363ms total)
T25BC 009:420 JLINK_IsHalted()  returns TRUE (0000ms, 0363ms total)
T25BC 009:420 JLINK_ReadReg(R15 (PC))  returns 0x0800031A (0000ms, 0363ms total)
T25BC 009:420 JLINK_ReadReg(XPSR)  returns 0x21000000 (0000ms, 0363ms total)
T25BC 009:420 JLINK_ClrBPEx(BPHandle = 0x00000002)  returns 0x00 (0000ms, 0363ms total)
T25BC 009:420 JLINK_ReadMemU32(0xE000ED30, 0x0001 Items, ...) -- CPU_ReadMem(4 bytes @ 0xE000ED30) - Data: 02 00 00 00  returns 0x01 (0001ms, 0364ms total)
T25BC 009:421 JLINK_ReadMemU32(0xE0001028, 0x0001 Items, ...) -- CPU_ReadMem(4 bytes @ 0xE0001028) - Data: 00 00 00 00  returns 0x01 (0000ms, 0364ms total)
T25BC 009:421 JLINK_ReadMemU32(0xE0001038, 0x0001 Items, ...) -- CPU_ReadMem(4 bytes @ 0xE0001038) - Data: 00 02 00 00  returns 0x01 (0000ms, 0364ms total)
T25BC 009:421 JLINK_ReadMemU32(0xE0001048, 0x0001 Items, ...) -- CPU_ReadMem(4 bytes @ 0xE0001048) - Data: 00 00 00 00  returns 0x01 (0000ms, 0364ms total)
T25BC 009:421 JLINK_ReadMemU32(0xE0001058, 0x0001 Items, ...) -- CPU_ReadMem(4 bytes @ 0xE0001058) - Data: 00 00 00 00  returns 0x01 (0001ms, 0365ms total)
T25BC 009:422 JLINK_ReadReg(R0)  returns 0x00000001 (0000ms, 0365ms total)
T25BC 009:422 JLINK_ReadReg(R1)  returns 0x200000D8 (0000ms, 0365ms total)
T25BC 009:422 JLINK_ReadReg(R2)  returns 0x20003014 (0000ms, 0365ms total)
T25BC 009:422 JLINK_ReadReg(R3)  returns 0x00000000 (0000ms, 0365ms total)
T25BC 009:422 JLINK_ReadReg(R4)  returns 0x00000001 (0000ms, 0365ms total)
T25BC 009:422 JLINK_ReadReg(R5)  returns 0xA5A5A5A5 (0000ms, 0365ms total)
T25BC 009:422 JLINK_ReadReg(R6)  returns 0xA5A5A5A5 (0000ms, 0365ms total)
T25BC 009:422 JLINK_ReadReg(R7)  returns 0xA5A5A5A5 (0000ms, 0365ms total)
T25BC 009:422 JLINK_ReadReg(R8)  returns 0xA5A5A5A5 (0000ms, 0365ms total)
T25BC 009:422 JLINK_ReadReg(R9)  returns 0xA5A5A5A5 (0000ms, 0365ms total)
T25BC 009:422 JLINK_ReadReg(R10)  returns 0xA5A5A5A5 (0000ms, 0365ms total)
T25BC 009:422 JLINK_ReadReg(R11)  returns 0xA5A5A5A5 (0000ms, 0365ms total)
T25BC 009:422 JLINK_ReadReg(R12)  returns 0xA5A5A5A5 (0000ms, 0365ms total)
T25BC 009:422 JLINK_ReadReg(R13 (SP))  returns 0x20001F20 (0000ms, 0365ms total)
T25BC 009:422 JLINK_ReadReg(R14)  returns 0x08004B3F (0000ms, 0365ms total)
T25BC 009:422 JLINK_ReadReg(R15 (PC))  returns 0x0800031A (0000ms, 0365ms total)
T25BC 009:422 JLINK_ReadReg(XPSR)  returns 0x21000000 (0000ms, 0365ms total)
T25BC 009:422 JLINK_ReadReg(MSP)  returns 0x20003400 (0000ms, 0365ms total)
T25BC 009:422 JLINK_ReadReg(PSP)  returns 0x20001F20 (0000ms, 0365ms total)
T25BC 009:422 JLINK_ReadReg(CFBP)  returns 0x02000000 (0000ms, 0365ms total)
T3430 009:422 JLINK_ReadMem (0x200000B9, 0x0001 Bytes, ...) -- CPU_ReadMem(64 bytes @ 0x20000080) -- Updating C cache (64 bytes @ 0x20000080) -- Read from C cache (1 bytes @ 0x200000B9) - Data: 02  returns 0x00 (0001ms, 0366ms total)
T3430 009:423 JLINK_ReadMem (0x00000000, 0x0004 Bytes, ...) -- CPU_ReadMem(4 bytes @ 0x00000004) -- Read from flash cache (4 bytes @ 0x08000000) - Data: 20 34 00 20  returns 0x00 (0000ms, 0366ms total)
T3430 009:428 JLINK_ReadMem (0x40012400, 0x004C Bytes, ...) -- CPU_ReadMem(76 bytes @ 0x40012400) - Data: 00 00 00 00 00 01 00 00 02 00 1E 00 00 00 00 00 ...  returns 0x00 (0001ms, 0367ms total)
T3430 009:429 JLINK_ReadMem (0x4001244C, 0x0004 Bytes, ...) -- CPU_ReadMem(4 bytes @ 0x4001244C) - Data: C0 07 00 00  returns 0x00 (0000ms, 0367ms total)
T3430 009:444 JLINK_ReadMem (0x40000800, 0x0010 Bytes, ...) -- CPU_ReadMem(16 bytes @ 0x40000800) - Data: 00 00 00 00 00 00 00 00 00 00 00 00 00 00 00 00  returns 0x00 (0000ms, 0367ms total)
T3430 009:445 JLINK_ReadMem (0x40000810, 0x0004 Bytes, ...) -- CPU_ReadMem(4 bytes @ 0x40000810) - Data: 01 00 00 00  returns 0x00 (0000ms, 0367ms total)
T3430 009:445 JLINK_ReadMem (0x40000818, 0x0014 Bytes, ...) -- CPU_ReadMem(20 bytes @ 0x40000818) - Data: 00 00 00 00 00 00 00 00 00 00 00 00 00 00 00 00 ...  returns 0x00 (0000ms, 0367ms total)
T3430 009:445 JLINK_ReadMem (0x4000082C, 0x0004 Bytes, ...) -- CPU_ReadMem(4 bytes @ 0x4000082C) - Data: 00 00 00 00  returns 0x00 (0000ms, 0367ms total)
T3430 009:445 JLINK_ReadMem (0x40000834, 0x000C Bytes, ...) -- CPU_ReadMem(12 bytes @ 0x40000834) - Data: 00 00 00 00 00 00 00 00 00 00 00 00  returns 0x00 (0001ms, 0368ms total)
T3430 009:446 JLINK_ReadMem (0x40000840, 0x0004 Bytes, ...) -- CPU_ReadMem(4 bytes @ 0x40000840) - Data: 00 00 00 00  returns 0x00 (0000ms, 0368ms total)
T3430 009:446 JLINK_ReadMem (0x40000848, 0x0004 Bytes, ...) -- CPU_ReadMem(4 bytes @ 0x40000848) - Data: 00 00 00 00  returns 0x00 (0000ms, 0368ms total)
T3430 009:446 JLINK_ReadMem (0x4000084C, 0x0004 Bytes, ...) -- CPU_ReadMem(4 bytes @ 0x4000084C) - Data: 00 00 00 00  returns 0x00 (0000ms, 0368ms total)
T3430 009:447 JLINK_ReadMem (0x40010400, 0x0014 Bytes, ...) -- CPU_ReadMem(20 bytes @ 0x40010400) - Data: 40 80 00 00 00 00 00 00 00 80 00 00 40 00 00 00 ...  returns 0x00 (0000ms, 0368ms total)
T3430 009:447 JLINK_ReadMem (0x40010414, 0x0004 Bytes, ...) -- CPU_ReadMem(4 bytes @ 0x40010414) - Data: 00 00 00 00  returns 0x00 (0000ms, 0368ms total)
T3430 009:448 JLINK_ReadMem (0x40010C00, 0x000C Bytes, ...) -- CPU_ReadMem(12 bytes @ 0x40010C00) - Data: 20 B2 B8 28 44 4B B2 B4 D0 EF 00 00  returns 0x00 (0000ms, 0368ms total)
T3430 009:448 JLINK_ReadMem (0x40010C0C, 0x0004 Bytes, ...) -- CPU_ReadMem(4 bytes @ 0x40010C0C) - Data: D0 00 00 00  returns 0x00 (0000ms, 0368ms total)
T3430 009:448 JLINK_ReadMem (0x40010C18, 0x0004 Bytes, ...) -- CPU_ReadMem(4 bytes @ 0x40010C18) - Data: 00 00 00 00  returns 0x00 (0001ms, 0369ms total)
T3430 009:449 JLINK_ReadMem (0x40013000, 0x0020 Bytes, ...) -- CPU_ReadMem(32 bytes @ 0x40013000) - Data: 0C 03 00 00 00 00 00 00 02 00 00 00 00 00 00 00 ...  returns 0x00 (0001ms, 0370ms total)
T3430 009:450 JLINK_ReadMem (0x40013020, 0x0004 Bytes, ...) -- CPU_ReadMem(4 bytes @ 0x40013020) - Data: 00 00 00 00  returns 0x00 (0000ms, 0370ms total)
T3430 009:450 JLINK_ReadMem (0x40020000, 0x0004 Bytes, ...) -- CPU_ReadMem(4 bytes @ 0x40020000) - Data: 00 00 00 00  returns 0x00 (0001ms, 0371ms total)
T3430 009:451 JLINK_ReadMem (0x40020008, 0x000C Bytes, ...) -- CPU_ReadMem(12 bytes @ 0x40020008) - Data: 88 05 00 00 00 00 00 00 4C 24 01 40  returns 0x00 (0000ms, 0371ms total)
T3430 009:451 JLINK_ReadMem (0x40020014, 0x0004 Bytes, ...) -- CPU_ReadMem(4 bytes @ 0x40020014) - Data: D0 06 00 20  returns 0x00 (0000ms, 0371ms total)
T3430 009:451 JLINK_ReadMem (0x4002001C, 0x000C Bytes, ...) -- CPU_ReadMem(12 bytes @ 0x4002001C) - Data: 90 10 00 00 00 00 00 00 00 00 00 00  returns 0x00 (0000ms, 0371ms total)
T3430 009:451 JLINK_ReadMem (0x40020028, 0x0004 Bytes, ...) -- CPU_ReadMem(4 bytes @ 0x40020028) - Data: 00 00 00 00  returns 0x00 (0001ms, 0372ms total)
T3430 009:452 JLINK_ReadMem (0x40020030, 0x000C Bytes, ...) -- CPU_ReadMem(12 bytes @ 0x40020030) - Data: 80 10 00 00 00 00 00 00 00 00 00 00  returns 0x00 (0000ms, 0372ms total)
T3430 009:452 JLINK_ReadMem (0x4002003C, 0x0004 Bytes, ...) -- CPU_ReadMem(4 bytes @ 0x4002003C) - Data: 00 00 00 00  returns 0x00 (0000ms, 0372ms total)
T3430 009:452 JLINK_ReadMem (0x40020044, 0x000C Bytes, ...) -- CPU_ReadMem(12 bytes @ 0x40020044) - Data: 90 10 00 00 00 00 00 00 00 00 00 00  returns 0x00 (0000ms, 0372ms total)
T3430 009:452 JLINK_ReadMem (0x40020050, 0x0004 Bytes, ...) -- CPU_ReadMem(4 bytes @ 0x40020050) - Data: 00 00 00 00  returns 0x00 (0001ms, 0373ms total)
T3430 009:453 JLINK_ReadMem (0x40020058, 0x000C Bytes, ...) -- CPU_ReadMem(12 bytes @ 0x40020058) - Data: 80 10 00 00 00 00 00 00 00 00 00 00  returns 0x00 (0000ms, 0373ms total)
T3430 009:453 JLINK_ReadMem (0x40020064, 0x0004 Bytes, ...) -- CPU_ReadMem(4 bytes @ 0x40020064) - Data: 00 00 00 00  returns 0x00 (0000ms, 0373ms total)
T3430 009:453 JLINK_ReadMem (0x4002006C, 0x000C Bytes, ...) -- CPU_ReadMem(12 bytes @ 0x4002006C) - Data: 00 00 00 00 00 00 00 00 00 00 00 00  returns 0x00 (0000ms, 0373ms total)
T3430 009:453 JLINK_ReadMem (0x40020078, 0x0004 Bytes, ...) -- CPU_ReadMem(4 bytes @ 0x40020078) - Data: 00 00 00 00  returns 0x00 (0001ms, 0374ms total)
T3430 009:454 JLINK_ReadMem (0x40020080, 0x000C Bytes, ...) -- CPU_ReadMem(12 bytes @ 0x40020080) - Data: 00 00 00 00 00 00 00 00 00 00 00 00  returns 0x00 (0000ms, 0374ms total)
T3430 009:454 JLINK_ReadMem (0x4002008C, 0x0004 Bytes, ...) -- CPU_ReadMem(4 bytes @ 0x4002008C) - Data: 00 00 00 00  returns 0x00 (0000ms, 0374ms total)
T3430 009:455 JLINK_ReadMem (0x40013800, 0x0018 Bytes, ...) -- CPU_ReadMem(24 bytes @ 0x40013800) - Data: C0 00 00 00 00 00 00 00 05 0D 00 00 0C 20 00 00 ...  returns 0x00 (0000ms, 0374ms total)
T3430 009:455 JLINK_ReadMem (0x40013818, 0x0004 Bytes, ...) -- CPU_ReadMem(4 bytes @ 0x40013818) - Data: 00 00 00 00  returns 0x00 (0000ms, 0374ms total)
T3430 009:458 JLINK_ReadMem (0x08000310, 0x003C Bytes, ...) -- Read from flash cache (60 bytes @ 0x08000310) - Data: 0C B9 01 20 00 E0 00 20 04 46 04 EB 84 00 07 4A ...  returns 0x00 (0000ms, 0374ms total)
T3430 011:518 JLINK_ReadMem (0x200006D0, 0x0002 Bytes, ...) -- CPU_ReadMem(64 bytes @ 0x200006C0) -- Updating C cache (64 bytes @ 0x200006C0) -- Read from C cache (2 bytes @ 0x200006D0) - Data: D0 0F  returns 0x00 (0000ms, 0374ms total)
T3430 011:518 JLINK_ReadMem (0x200006D2, 0x0002 Bytes, ...) -- Read from C cache (2 bytes @ 0x200006D2) - Data: CF 0F  returns 0x00 (0000ms, 0374ms total)
T3430 011:518 JLINK_ReadMem (0x200006D4, 0x0002 Bytes, ...) -- Read from C cache (2 bytes @ 0x200006D4) - Data: D3 0A  returns 0x00 (0000ms, 0374ms total)
T3430 011:518 JLINK_ReadMem (0x200006D6, 0x0002 Bytes, ...) -- Read from C cache (2 bytes @ 0x200006D6) - Data: BD 08  returns 0x00 (0000ms, 0374ms total)
T3430 011:518 JLINK_ReadMem (0x200006D8, 0x0002 Bytes, ...) -- Read from C cache (2 bytes @ 0x200006D8) - Data: BF 07  returns 0x00 (0000ms, 0374ms total)
T3430 011:518 JLINK_ReadMem (0x200006DA, 0x0002 Bytes, ...) -- Read from C cache (2 bytes @ 0x200006DA) - Data: CF 0F  returns 0x00 (0000ms, 0374ms total)
T3430 011:518 JLINK_ReadMem (0x200006DC, 0x0002 Bytes, ...) -- Read from C cache (2 bytes @ 0x200006DC) - Data: CF 0F  returns 0x00 (0000ms, 0374ms total)
T3430 011:518 JLINK_ReadMem (0x200006DE, 0x0002 Bytes, ...) -- Read from C cache (2 bytes @ 0x200006DE) - Data: D3 0A  returns 0x00 (0000ms, 0374ms total)
T3430 011:518 JLINK_ReadMem (0x200006E0, 0x0002 Bytes, ...) -- Read from C cache (2 bytes @ 0x200006E0) - Data: BE 08  returns 0x00 (0000ms, 0374ms total)
T3430 011:518 JLINK_ReadMem (0x200006E2, 0x0002 Bytes, ...) -- Read from C cache (2 bytes @ 0x200006E2) - Data: BF 07  returns 0x00 (0001ms, 0375ms total)
T3430 011:519 JLINK_ReadMem (0x200006E4, 0x0002 Bytes, ...) -- Read from C cache (2 bytes @ 0x200006E4) - Data: CF 0F  returns 0x00 (0000ms, 0375ms total)
T3430 011:519 JLINK_ReadMem (0x200006E6, 0x0002 Bytes, ...) -- Read from C cache (2 bytes @ 0x200006E6) - Data: D0 0F  returns 0x00 (0000ms, 0375ms total)
T3430 011:519 JLINK_ReadMem (0x200006E8, 0x0002 Bytes, ...) -- Read from C cache (2 bytes @ 0x200006E8) - Data: D3 0A  returns 0x00 (0000ms, 0375ms total)
T3430 011:519 JLINK_ReadMem (0x200006EA, 0x0002 Bytes, ...) -- Read from C cache (2 bytes @ 0x200006EA) - Data: BD 08  returns 0x00 (0000ms, 0375ms total)
T3430 011:519 JLINK_ReadMem (0x200006EC, 0x0002 Bytes, ...) -- Read from C cache (2 bytes @ 0x200006EC) - Data: BF 07  returns 0x00 (0000ms, 0375ms total)
T3430 011:519 JLINK_ReadMem (0x200006EE, 0x0002 Bytes, ...) -- Read from C cache (2 bytes @ 0x200006EE) - Data: CE 0F  returns 0x00 (0000ms, 0375ms total)
T3430 011:519 JLINK_ReadMem (0x200006F0, 0x0002 Bytes, ...) -- Read from C cache (2 bytes @ 0x200006F0) - Data: D0 0F  returns 0x00 (0000ms, 0375ms total)
T3430 011:519 JLINK_ReadMem (0x200006F2, 0x0002 Bytes, ...) -- Read from C cache (2 bytes @ 0x200006F2) - Data: D3 0A  returns 0x00 (0000ms, 0375ms total)
T3430 011:519 JLINK_ReadMem (0x200006F4, 0x0002 Bytes, ...) -- Read from C cache (2 bytes @ 0x200006F4) - Data: BE 08  returns 0x00 (0000ms, 0375ms total)
T3430 011:519 JLINK_ReadMem (0x200006F6, 0x0002 Bytes, ...) -- Read from C cache (2 bytes @ 0x200006F6) - Data: C0 07  returns 0x00 (0000ms, 0375ms total)
T3430 013:592 JLINK_ReadMem (0x200006F8, 0x0002 Bytes, ...) -- Read from C cache (2 bytes @ 0x200006F8) - Data: 00 00  returns 0x00 (0000ms, 0375ms total)
T3430 013:592 JLINK_ReadMem (0x200006FA, 0x0002 Bytes, ...) -- Read from C cache (2 bytes @ 0x200006FA) - Data: 00 00  returns 0x00 (0000ms, 0375ms total)
T3430 013:592 JLINK_ReadMem (0x200006FC, 0x0002 Bytes, ...) -- Read from C cache (2 bytes @ 0x200006FC) - Data: 00 00  returns 0x00 (0000ms, 0375ms total)
T3430 013:592 JLINK_ReadMem (0x200006FE, 0x0002 Bytes, ...) -- Read from C cache (2 bytes @ 0x200006FE) - Data: 00 00  returns 0x00 (0000ms, 0375ms total)
T3430 013:592 JLINK_ReadMem (0x20000700, 0x0002 Bytes, ...) -- CPU_ReadMem(64 bytes @ 0x20000700) -- Updating C cache (64 bytes @ 0x20000700) -- Read from C cache (2 bytes @ 0x20000700) - Data: 00 00  returns 0x00 (0001ms, 0376ms total)
T3430 013:593 JLINK_ReadMem (0x20000702, 0x0002 Bytes, ...) -- Read from C cache (2 bytes @ 0x20000702) - Data: 00 00  returns 0x00 (0000ms, 0376ms total)
T3430 013:593 JLINK_ReadMem (0x20000704, 0x0002 Bytes, ...) -- Read from C cache (2 bytes @ 0x20000704) - Data: 00 00  returns 0x00 (0000ms, 0376ms total)
T3430 013:593 JLINK_ReadMem (0x20000706, 0x0002 Bytes, ...) -- Read from C cache (2 bytes @ 0x20000706) - Data: 00 00  returns 0x00 (0000ms, 0376ms total)
T3430 013:593 JLINK_ReadMem (0x20000708, 0x0002 Bytes, ...) -- Read from C cache (2 bytes @ 0x20000708) - Data: 00 00  returns 0x00 (0000ms, 0376ms total)
T3430 013:593 JLINK_ReadMem (0x2000070A, 0x0002 Bytes, ...) -- Read from C cache (2 bytes @ 0x2000070A) - Data: 00 00  returns 0x00 (0000ms, 0376ms total)
T3430 013:593 JLINK_ReadMem (0x2000070C, 0x0002 Bytes, ...) -- Read from C cache (2 bytes @ 0x2000070C) - Data: 00 00  returns 0x00 (0000ms, 0376ms total)
T3430 013:593 JLINK_ReadMem (0x2000070E, 0x0002 Bytes, ...) -- Read from C cache (2 bytes @ 0x2000070E) - Data: 00 00  returns 0x00 (0000ms, 0376ms total)
T3430 013:593 JLINK_ReadMem (0x20000710, 0x0002 Bytes, ...) -- Read from C cache (2 bytes @ 0x20000710) - Data: 00 00  returns 0x00 (0000ms, 0376ms total)
T3430 013:593 JLINK_ReadMem (0x20000712, 0x0002 Bytes, ...) -- Read from C cache (2 bytes @ 0x20000712) - Data: 00 00  returns 0x00 (0000ms, 0376ms total)
T3430 013:593 JLINK_ReadMem (0x20000714, 0x0002 Bytes, ...) -- Read from C cache (2 bytes @ 0x20000714) - Data: 00 00  returns 0x00 (0000ms, 0376ms total)
T3430 013:593 JLINK_ReadMem (0x20000716, 0x0002 Bytes, ...) -- Read from C cache (2 bytes @ 0x20000716) - Data: 00 00  returns 0x00 (0000ms, 0376ms total)
T3430 013:593 JLINK_ReadMem (0x20000718, 0x0002 Bytes, ...) -- Read from C cache (2 bytes @ 0x20000718) - Data: 00 00  returns 0x00 (0000ms, 0376ms total)
T3430 013:593 JLINK_ReadMem (0x2000071A, 0x0002 Bytes, ...) -- Read from C cache (2 bytes @ 0x2000071A) - Data: 00 00  returns 0x00 (0000ms, 0376ms total)
T3430 013:593 JLINK_ReadMem (0x2000071C, 0x0002 Bytes, ...) -- Read from C cache (2 bytes @ 0x2000071C) - Data: 00 00  returns 0x00 (0000ms, 0376ms total)
T3430 013:593 JLINK_ReadMem (0x2000071E, 0x0002 Bytes, ...) -- Read from C cache (2 bytes @ 0x2000071E) - Data: 00 00  returns 0x00 (0000ms, 0376ms total)
